
T304C 000:071 SEGGER J-Link V4.68a Log File (0001ms, 0072ms total)
T304C 000:071 DLL Compiled: Apr 12 2013 13:26:50 (0001ms, 0072ms total)
T304C 000:071 Logging started @ 2019-12-05 17:54 (0001ms, 0072ms total)
T304C 000:072 JLINK_SetWarnOutHandler(...) (0000ms, 0072ms total)
T304C 000:072 JLINK_OpenEx(...)
Firmware: J-Link ARM-OB STM32 compiled Aug 22 2012 19:52:04
Hardware: V7.00
Feature(s): RDI,FlashDL,FlashBP,JFlash,GDBFull  returns O.K. (0010ms, 0082ms total)
T304C 000:082 JLINK_SetErrorOutHandler(...) (0000ms, 0082ms total)
T304C 000:082 JLINK_ExecCommand("ProjectFile = "C:\Users\Palom\OneDrive - Universidad de Alcala\19-20\EUROBOT\Actuadores_posavasos\MDK-ARM\JLinkSettings.ini"", ...)  returns 0x00 (0001ms, 0083ms total)
T304C 000:083 JLINK_ExecCommand("Device = LPC1768", ...)
                JLINK_AddMirrorAreaEx(Addr = 0x00000000, Size = 0x00000000) (0000ms, 0000ms total)
              Device "LPC1768" selected (512 KB flash, 32 KB RAM).  returns 0x00 (0001ms, 0084ms total)
T304C 000:084 JLINK_ExecCommand("DisableConnectionTimeout", ...)  returns 0x00 (0000ms, 0084ms total)
T304C 000:084 JLINK_GetHardwareVersion()  returns 0x11170 (0000ms, 0084ms total)
T304C 000:084 JLINK_GetDLLVersion()  returns 46801 (0000ms, 0084ms total)
T304C 000:084 JLINK_GetFirmwareString(...) (0000ms, 0084ms total)
T304C 000:084 JLINK_GetDLLVersion()  returns 46801 (0000ms, 0084ms total)
T304C 000:084 JLINK_GetCompileDateTime() (0000ms, 0084ms total)
T304C 000:085 JLINK_GetFirmwareString(...) (0000ms, 0084ms total)
T304C 000:085 JLINK_GetHardwareVersion()  returns 0x11170 (0000ms, 0084ms total)
T304C 000:085 JLINK_TIF_Select(JLINKARM_TIF_JTAG)  returns 0x00 (0000ms, 0084ms total)
T304C 000:085 JLINK_SetSpeed(10000) (0000ms, 0084ms total)
T304C 000:085 JLINK_GetIdData(...) >0x2F8 JTAG>TotalIRLen = 4, IRPrint = 0x01 >0x30 JTAG> >0x210 JTAG> >0x78 JTAG> >0x40 JTAG> >0x40 JTAG> >0x48 JTAG> >0x40 JTAG> >0x40 JTAG> >0x40 JTAG> >0x48 JTAG> >0x40 JTAG> >0x40 JTAG> >0x40 JTAG> >0x30 JTAG> >0x40 JTAG> >0x48 JTAG> >0x40 JTAG> >0x30 JTAG> >0x78 JTAG> >0x40 JTAG> >0x40 JTAG> >0x48 JTAG> >0x40 JTAG> >0x40 JTAG> >0x40 JTAG> >0x48 JTAG> >0x40 JTAG> >0x40 JTAG> >0x30 JTAG> >0x40 JTAG> >0x40 JTAG> >0x40 JTAG> >0x40 JTAG> >0x40 JTAG> >0x48 JTAG>
 >0x40 JTAG> >0x78 JTAG> >0x40 JTAG> >0x30 JTAG> >0x40 JTAG> >0x40 JTAG> >0x40 JTAG> >0x40 JTAG> >0x40 JTAG> >0x48 JTAG> >0x40 JTAG> >0x78 JTAG> >0x40 JTAG> >0x30 JTAG> >0x40 JTAG> >0x48 JTAG> >0x40 JTAG> >0x40 JTAG> >0x40 JTAG> >0x30 JTAG> >0x40 JTAG> >0x48 JTAG> >0x40 JTAG>Found Cortex-M3 r2p0, Little endian. >0x48 JTAG> >0x48 JTAG> >0x40 JTAG> >0x40 JTAG> >0x30 JTAG> >0x30 JTAG> >0x48 JTAG> >0x40 JTAG> >0x78 JTAG> >0x40 JTAG> >0x30 JTAG> >0x40 JTAG> >0x48 JTAG> >0x40 JTAG> >0x40 JTAG> >0x40 JTAG>
 >0x30 JTAG> >0x40 JTAG> >0x48 JTAG> >0x40 JTAG>TPIU fitted. >0x40 JTAG> >0x40 JTAG> >0x30 JTAG> >0x40 JTAG> >0x48 JTAG> >0x40 JTAG>ETM fitted. >0x40 JTAG> >0x40 JTAG> >0x30 JTAG> >0x40 JTAG> >0x48 JTAG> >0x40 JTAG> >0x40 JTAG> >0x40 JTAG> >0x30 JTAG> >0x40 JTAG> >0x48 JTAG> >0x40 JTAG>FPUnit: 6 code (BP) slots and 2 literal slots >0x40 JTAG> >0x40 JTAG> >0x30 JTAG> >0x40 JTAG> >0x48 JTAG> >0x40 JTAG> >0x40 JTAG> >0x40 JTAG> >0x30 JTAG> >0x40 JTAG> >0x48 JTAG> >0x40 JTAG> >0x40 JTAG> >0x40 JTAG>
 >0x30 JTAG> >0x30 JTAG> >0x48 JTAG> >0x40 JTAG> ScanLen=4 NumDevices=1 aId[0]=0x4BA00477 aIrRead[0]=0 aScanLen[0]=0 aScanRead[0]=0 (0040ms, 0124ms total)
T304C 000:125 JLINK_JTAG_GetDeviceID(DeviceIndex = 0)  returns 0x4BA00477 (0000ms, 0124ms total)
T304C 000:125 JLINK_JTAG_GetDeviceInfo(DeviceIndex = 0)  returns 0x00 (0000ms, 0124ms total)
T304C 000:125 JLINK_GetDeviceFamily()  returns 3 (0000ms, 0124ms total)
T304C 000:129 JLINK_ReadMem (0xE00FFFF0, 0x0010 Bytes, ...) -- CPU is running >0x2C8 JTAG> -- Data:  0D 00 00 00 10 00 00 00 05 00 00 00 B1 00 00 00  returns 0x00 (0002ms, 0126ms total)
T304C 000:131 JLINK_ReadMem (0xE00FFFD0, 0x0020 Bytes, ...) -- CPU is running >0x370 JTAG> -- Data:  00 00 00 00 00 00 00 00 00 00 00 00 00 00 00 00 ...  returns 0x00 (0001ms, 0127ms total)
T304C 000:132 JLINK_ReadMem (0xE00FF000, 0x0018 Bytes, ...) -- CPU is running >0x2F8 JTAG> -- Data:  03 F0 F0 FF 03 20 F0 FF 03 30 F0 FF 03 10 F0 FF ...  returns 0x00 (0002ms, 0129ms total)
T304C 000:134 JLINK_ReadMemU32(0xE000ED00, 0x0001 Items, ...) -- CPU is running >0x1D8 JTAG> -- Data:  30 C2 2F 41  returns 0x01 (0001ms, 0130ms total)
T304C 000:135 JLINK_SetResetType(JLINKARM_RESET_TYPE_NORMAL)  returns ??? (0000ms, 0130ms total)
T304C 000:135 JLINK_Reset() >0x30 JTAG> >0x78 JTAG> >0x40 JTAG> >0x40 JTAG> >0x48 JTAG> >0x40 JTAG> >0x40 JTAG> >0x40 JTAG> >0x48 JTAG> >0x40 JTAG> >0x40 JTAG> >0x30 JTAG> >0x40 JTAG> >0x40 JTAG> >0x40 JTAG> >0x40 JTAG> >0x40 JTAG> >0x48 JTAG> >0x40 JTAG> >0x78 JTAG> >0x40 JTAG> >0x30 JTAG> >0x40 JTAG> >0x40 JTAG> >0x40 JTAG> >0x40 JTAG> >0x40 JTAG> >0x48 JTAG> >0x40 JTAG> >0x78 JTAG> >0x40 JTAG> >0x30 JTAG> >0x40 JTAG> >0x48 JTAG> >0x40 JTAG> >0x40 JTAG> >0x40 JTAG> >0x30 JTAG> >0x40 JTAG> >0x48 JTAG>
 >0x40 JTAG>Found Cortex-M3 r2p0, Little endian. >0x48 JTAG> >0x48 JTAG> >0x40 JTAG> >0x40 JTAG> >0x30 JTAG> >0x30 JTAG> >0x48 JTAG> >0x40 JTAG> >0x78 JTAG> >0x40 JTAG> >0x30 JTAG> >0x40 JTAG> >0x48 JTAG> >0x40 JTAG> >0x40 JTAG> >0x40 JTAG> >0x30 JTAG> >0x40 JTAG> >0x48 JTAG> >0x40 JTAG>TPIU fitted. >0x40 JTAG> >0x40 JTAG> >0x30 JTAG> >0x40 JTAG> >0x48 JTAG> >0x40 JTAG>ETM fitted. >0x40 JTAG> >0x40 JTAG> >0x30 JTAG> >0x40 JTAG> >0x48 JTAG> >0x40 JTAG> >0x40 JTAG> >0x40 JTAG> >0x30 JTAG> >0x40 JTAG>
 >0x48 JTAG> >0x40 JTAG>FPUnit: 6 code (BP) slots and 2 literal slots >0x40 JTAG> >0x40 JTAG> >0x30 JTAG> >0x40 JTAG> >0x48 JTAG> >0x40 JTAG> >0x40 JTAG> >0x40 JTAG> >0x30 JTAG> >0x40 JTAG> >0x48 JTAG> >0x40 JTAG> >0x40 JTAG> >0x40 JTAG> >0x30 JTAG> >0x30 JTAG> >0x48 JTAG> >0x40 JTAG> -- CPU is running >0x218 JTAG> -- CPU is running >0x1D0 JTAG> -- CPU is running >0x208 JTAG> -- CPU is running >0x1D8 JTAG> -- CPU is running >0x1D8 JTAG> -- CPU is running >0x1D0 JTAG> -- CPU is running >0x1D0 JTAG>
 -- CPU is running >0x1D8 JTAG> >0x170 JTAG> >0x1598 JTAG> >0x40 JTAG> >0x40 JTAG> >0x30 JTAG> >0x40 JTAG> >0x48 JTAG> >0x40 JTAG> >0x1D0 JTAG> >0x1D0 JTAG> >0x1D0 JTAG> >0x1D0 JTAG> >0x1D0 JTAG> >0x1D0 JTAG> >0x1D0 JTAG> >0x1D0 JTAG> >0x1D0 JTAG> >0x1D0 JTAG> >0x1D0 JTAG> >0x1D0 JTAG> >0x1D0 JTAG> >0x1D0 JTAG> >0x1D0 JTAG> >0x1D0 JTAG> >0x1D0 JTAG> >0x1D0 JTAG> >0x1D0 JTAG> >0x1D0 JTAG> >0x1D0 JTAG> >0x218 JTAG> >0x218 JTAG> >0x170 JTAG> >0x1598 JTAG> >0x1D0 JTAG> >0x1D0 JTAG> >0x1D8 JTAG> >0x1D8 JTAG>
 >0x1D8 JTAG> >0x1D8 JTAG> >0x1D8 JTAG> >0x1D8 JTAG> >0x1D8 JTAG> >0x1D8 JTAG> >0x1D0 JTAG> >0x1D0 JTAG> >0x1D0 JTAG> >0x1D0 JTAG> >0x1D0 JTAG> >0x1D0 JTAG> >0x1D0 JTAG> >0x218 JTAG> >0x218 JTAG> >0x170 JTAG> >0x1598 JTAG>
                JLINK_ReadMemHW(0x400FC040, 0x0004 Bytes, ...) >0x1D8 JTAG> -- Data:  01 00 00 00  returns 0x00 (0001ms, 0001ms total)
               -- MA0 is in flash -- Unmirror addr 0x00000168 >0x1D0 JTAG> >0x1D0 JTAG> >0x1D0 JTAG> >0x1D0 JTAG> >0x1D0 JTAG> >0x1D0 JTAG> >0x1D0 JTAG> >0x1D0 JTAG> >0x06 JTAG> (0393ms, 0523ms total)
T304C 000:529 JLINK_Halt()  returns 0x00 (0000ms, 0523ms total)
T304C 000:529 JLINK_IsHalted() -- Unmirror addr 0x00000168  returns TRUE (0000ms, 0523ms total)
T304C 000:529 JLINK_ReadMemU32(0xE000EDF0, 0x0001 Items, ...) >0x1D8 JTAG> -- Data:  03 00 03 00  returns 0x01 (0002ms, 0525ms total)
T304C 000:531 JLINK_WriteU32(0xE000EDF0, 0xA05F0003) >0x1D0 JTAG> -- Invalidate MA0 status  returns 0x00 (0002ms, 0527ms total)
T304C 000:533 JLINK_WriteU32(0xE000EDFC, 0x01000000) >0x1D0 JTAG>  returns 0x00 (0001ms, 0528ms total)
T304C 000:589 JLINK_GetHWStatus(...)  returns 0x00 (0000ms, 0528ms total)
T304C 000:611 JLINK_GetNumBPUnits(Type = 0xFFFFFF00)  returns 0x06 (0000ms, 0528ms total)
T304C 000:611 JLINK_GetNumBPUnits(Type = 0xF0)  returns 0x2000 (0000ms, 0528ms total)
T304C 000:611 JLINK_GetNumWPUnits()  returns 0x04 (0000ms, 0528ms total)
T304C 000:630 JLINK_GetSpeed()  returns 0xFA0 (0000ms, 0528ms total)
T304C 000:643 JLINK_ReadMemU32(0xE000E004, 0x0001 Items, ...) >0x1D8 JTAG> -- Data:  01 00 00 00  returns 0x01 (0002ms, 0530ms total)
T304C 000:645 JLINK_ReadMemU32(0xE000E004, 0x0001 Items, ...) >0x1D8 JTAG> -- Data:  01 00 00 00  returns 0x01 (0003ms, 0533ms total)
T304C 000:648 JLINK_WriteMem(0xE0001000, 0x001C Bytes, ...) -- Data:  01 00 00 00 00 00 00 00 00 00 00 00 00 00 00 00 ... >0x2F0 JTAG>  returns 0x1C (0002ms, 0535ms total)
T304C 000:650 JLINK_ReadMem (0xE0001000, 0x001C Bytes, ...) >0x338 JTAG> -- Data:  01 00 00 40 00 00 00 00 00 00 00 00 00 00 00 00 ...  returns 0x00 (0004ms, 0539ms total)
T304C 000:654 JLINK_Halt()  returns 0x00 (0000ms, 0539ms total)
T304C 000:654 JLINK_IsHalted()
                JLINK_ReadMemHW(0x400FC040, 0x0004 Bytes, ...) >0x1D8 JTAG> -- Data:  01 00 00 00  returns 0x00 (0001ms, 0001ms total)
               -- MA0 is in flash -- Unmirror addr 0x00000168  returns TRUE (0001ms, 0540ms total)
T304C 000:657 JLINK_WriteMem(0x10000000, 0x01E4 Bytes, ...) -- Data:  00 BE 0A E0 0D 78 2D 06 68 40 08 24 40 00 00 D3 ... >0x17D8 JTAG>  returns 0x1E4 (0013ms, 0552ms total)
T304C 000:670 JLINK_WriteReg(R0, 0x00000000)  returns 0x00 (0000ms, 0552ms total)
T304C 000:670 JLINK_WriteReg(R1, 0x00B71B00)  returns 0x00 (0000ms, 0552ms total)
T304C 000:670 JLINK_WriteReg(R2, 0x00000001)  returns 0x00 (0000ms, 0552ms total)
T304C 000:670 JLINK_WriteReg(R3, 0x00000000)  returns 0x00 (0000ms, 0552ms total)
T304C 000:670 JLINK_WriteReg(R4, 0x00000000)  returns 0x00 (0000ms, 0552ms total)
T304C 000:670 JLINK_WriteReg(R5, 0x00000000)  returns 0x00 (0000ms, 0552ms total)
T304C 000:670 JLINK_WriteReg(R6, 0x00000000)  returns 0x00 (0000ms, 0552ms total)
T304C 000:670 JLINK_WriteReg(R7, 0x00000000)  returns 0x00 (0000ms, 0552ms total)
T304C 000:670 JLINK_WriteReg(R8, 0x00000000)  returns 0x00 (0000ms, 0552ms total)
T304C 000:670 JLINK_WriteReg(R9, 0x100001DC)  returns 0x00 (0000ms, 0552ms total)
T304C 000:670 JLINK_WriteReg(R10, 0x00000000)  returns 0x00 (0000ms, 0552ms total)
T304C 000:670 JLINK_WriteReg(R11, 0x00000000)  returns 0x00 (0000ms, 0552ms total)
T304C 000:670 JLINK_WriteReg(R12, 0x00000000)  returns 0x00 (0000ms, 0552ms total)
T304C 000:670 JLINK_WriteReg(R13, 0x10000800)  returns 0x00 (0000ms, 0552ms total)
T304C 000:670 JLINK_WriteReg(R14, 0x10000001)  returns 0x00 (0000ms, 0552ms total)
T304C 000:670 JLINK_WriteReg(R15, 0x10000044)  returns 0x00 (0000ms, 0552ms total)
T304C 000:670 JLINK_WriteReg(XPSR, 0x01000000)  returns 0x00 (0000ms, 0552ms total)
T304C 000:670 JLINK_WriteReg(MSP, 0x10000800)  returns 0x00 (0000ms, 0552ms total)
T304C 000:670 JLINK_WriteReg(PSP, 0x10000800)  returns 0x00 (0000ms, 0552ms total)
T304C 000:670 JLINK_WriteReg(CFBP, 0x00000000)  returns 0x00 (0000ms, 0552ms total)
T304C 000:670 JLINK_SetBPEx(Addr = 0x10000000, Type = 0xFFFFFFF2)  returns 0x00000001 (0000ms, 0552ms total)
T304C 000:670 JLINK_Go() -- Invalidate MA0 status >0x1D0 JTAG> >0x1D0 JTAG> >0x1D0 JTAG> >0x1D0 JTAG> >0x1D0 JTAG> >0x1D0 JTAG> >0x2C8 JTAG> >0x1E8 JTAG> >0x1E8 JTAG> >0x1E8 JTAG> >0x1E8 JTAG> >0x1E8 JTAG> >0x1E8 JTAG> >0x1E8 JTAG> >0x1E8 JTAG> >0x1E8 JTAG> >0x1E8 JTAG> >0x218 JTAG> >0x218 JTAG> (0030ms, 0582ms total)
T304C 000:700 JLINK_IsHalted() >0x170 JTAG> >0x1598 JTAG>  returns TRUE (0016ms, 0598ms total)
T304C 000:716 JLINK_ReadReg(R15)  returns 0x10000000 (0000ms, 0582ms total)
T304C 000:716 JLINK_ClrBPEx(BPHandle = 0x00000001)  returns 0x00 (0000ms, 0582ms total)
T304C 000:716 JLINK_ReadReg(R0)  returns 0x00000000 (0000ms, 0582ms total)
T304C 000:717 JLINK_WriteReg(R0, 0x00000000)  returns 0x00 (0000ms, 0582ms total)
T304C 000:717 JLINK_WriteReg(R1, 0x00001000)  returns 0x00 (0000ms, 0582ms total)
T304C 000:717 JLINK_WriteReg(R2, 0x000000FF)  returns 0x00 (0000ms, 0582ms total)
T304C 000:717 JLINK_WriteReg(R3, 0x00000000)  returns 0x00 (0000ms, 0582ms total)
T304C 000:717 JLINK_WriteReg(R4, 0x00000000)  returns 0x00 (0000ms, 0582ms total)
T304C 000:717 JLINK_WriteReg(R5, 0x00000000)  returns 0x00 (0000ms, 0582ms total)
T304C 000:717 JLINK_WriteReg(R6, 0x00000000)  returns 0x00 (0000ms, 0582ms total)
T304C 000:717 JLINK_WriteReg(R7, 0x00000000)  returns 0x00 (0000ms, 0582ms total)
T304C 000:717 JLINK_WriteReg(R8, 0x00000000)  returns 0x00 (0000ms, 0582ms total)
T304C 000:717 JLINK_WriteReg(R9, 0x100001DC)  returns 0x00 (0000ms, 0582ms total)
T304C 000:717 JLINK_WriteReg(R10, 0x00000000)  returns 0x00 (0000ms, 0582ms total)
T304C 000:717 JLINK_WriteReg(R11, 0x00000000)  returns 0x00 (0000ms, 0582ms total)
T304C 000:717 JLINK_WriteReg(R12, 0x00000000)  returns 0x00 (0000ms, 0582ms total)
T304C 000:717 JLINK_WriteReg(R13, 0x10000800)  returns 0x00 (0000ms, 0582ms total)
T304C 000:717 JLINK_WriteReg(R14, 0x10000001)  returns 0x00 (0000ms, 0582ms total)
T304C 000:718 JLINK_WriteReg(R15, 0x10000020)  returns 0x00 (0000ms, 0582ms total)
T304C 000:718 JLINK_WriteReg(XPSR, 0x01000000)  returns 0x00 (0000ms, 0582ms total)
T304C 000:718 JLINK_WriteReg(MSP, 0x10000800)  returns 0x00 (0000ms, 0582ms total)
T304C 000:718 JLINK_WriteReg(PSP, 0x10000800)  returns 0x00 (0000ms, 0582ms total)
T304C 000:718 JLINK_WriteReg(CFBP, 0x00000000)  returns 0x00 (0000ms, 0582ms total)
T304C 000:718 JLINK_SetBPEx(Addr = 0x10000000, Type = 0xFFFFFFF2)  returns 0x00000002 (0000ms, 0582ms total)
T304C 000:718 JLINK_Go() >0x2C8 JTAG> >0x1E8 JTAG> >0x1E8 JTAG> >0x1E8 JTAG> >0x1E8 JTAG> >0x1E8 JTAG> >0x218 JTAG> >0x218 JTAG> (0013ms, 0595ms total)
T304C 000:731 JLINK_IsHalted() >0x170 JTAG> >0x1598 JTAG>  returns TRUE (0014ms, 0609ms total)
T304C 000:745 JLINK_ReadReg(R15)  returns 0x10000000 (0000ms, 0595ms total)
T304C 000:745 JLINK_ClrBPEx(BPHandle = 0x00000002)  returns 0x00 (0000ms, 0595ms total)
T304C 000:745 JLINK_ReadReg(R0)  returns 0x00000001 (0000ms, 0595ms total)
T304C 000:745 JLINK_WriteReg(R0, 0x00000000)  returns 0x00 (0000ms, 0595ms total)
T304C 000:745 JLINK_WriteReg(R1, 0x00001000)  returns 0x00 (0000ms, 0595ms total)
T304C 000:745 JLINK_WriteReg(R2, 0x000000FF)  returns 0x00 (0000ms, 0595ms total)
T304C 000:745 JLINK_WriteReg(R3, 0x00000000)  returns 0x00 (0000ms, 0595ms total)
T304C 000:745 JLINK_WriteReg(R4, 0x00000000)  returns 0x00 (0000ms, 0595ms total)
T304C 000:745 JLINK_WriteReg(R5, 0x00000000)  returns 0x00 (0000ms, 0595ms total)
T304C 000:745 JLINK_WriteReg(R6, 0x00000000)  returns 0x00 (0000ms, 0595ms total)
T304C 000:745 JLINK_WriteReg(R7, 0x00000000)  returns 0x00 (0000ms, 0595ms total)
T304C 000:745 JLINK_WriteReg(R8, 0x00000000)  returns 0x00 (0000ms, 0595ms total)
T304C 000:745 JLINK_WriteReg(R9, 0x100001DC)  returns 0x00 (0000ms, 0595ms total)
T304C 000:745 JLINK_WriteReg(R10, 0x00000000)  returns 0x00 (0000ms, 0595ms total)
T304C 000:745 JLINK_WriteReg(R11, 0x00000000)  returns 0x00 (0001ms, 0596ms total)
T304C 000:746 JLINK_WriteReg(R12, 0x00000000)  returns 0x00 (0000ms, 0596ms total)
T304C 000:746 JLINK_WriteReg(R13, 0x10000800)  returns 0x00 (0000ms, 0596ms total)
T304C 000:746 JLINK_WriteReg(R14, 0x10000001)  returns 0x00 (0000ms, 0596ms total)
T304C 000:746 JLINK_WriteReg(R15, 0x10000110)  returns 0x00 (0000ms, 0596ms total)
T304C 000:746 JLINK_WriteReg(XPSR, 0x01000000)  returns 0x00 (0000ms, 0596ms total)
T304C 000:746 JLINK_WriteReg(MSP, 0x10000800)  returns 0x00 (0000ms, 0596ms total)
T304C 000:746 JLINK_WriteReg(PSP, 0x10000800)  returns 0x00 (0000ms, 0596ms total)
T304C 000:746 JLINK_WriteReg(CFBP, 0x00000000)  returns 0x00 (0000ms, 0596ms total)
T304C 000:746 JLINK_SetBPEx(Addr = 0x10000000, Type = 0xFFFFFFF2)  returns 0x00000003 (0000ms, 0596ms total)
T304C 000:746 JLINK_Go() >0x2C8 JTAG> >0x1E8 JTAG> >0x1E8 JTAG> >0x1E8 JTAG> >0x218 JTAG> >0x218 JTAG> (0013ms, 0609ms total)
T304C 000:759 JLINK_IsHalted() >0x170 JTAG>  returns FALSE (0001ms, 0610ms total)
T304C 000:843 JLINK_IsHalted() >0x170 JTAG>  returns FALSE (0001ms, 0610ms total)
T304C 000:846 JLINK_IsHalted() >0x170 JTAG>  returns FALSE (0001ms, 0610ms total)
T304C 000:848 JLINK_IsHalted() >0x170 JTAG>  returns FALSE (0001ms, 0610ms total)
T304C 000:851 JLINK_IsHalted() >0x170 JTAG>  returns FALSE (0002ms, 0611ms total)
T304C 000:854 JLINK_IsHalted() >0x170 JTAG>  returns FALSE (0002ms, 0611ms total)
T304C 000:857 JLINK_IsHalted() >0x170 JTAG>  returns FALSE (0002ms, 0611ms total)
T304C 000:861 JLINK_IsHalted() >0x170 JTAG> >0x1598 JTAG>  returns TRUE (0016ms, 0625ms total)
T304C 000:877 JLINK_ReadReg(R15)  returns 0x10000000 (0000ms, 0609ms total)
T304C 000:877 JLINK_ClrBPEx(BPHandle = 0x00000003)  returns 0x00 (0000ms, 0609ms total)
T304C 000:877 JLINK_ReadReg(R0)  returns 0x00000000 (0000ms, 0609ms total)
T304C 000:877 JLINK_WriteReg(R0, 0x00001000)  returns 0x00 (0000ms, 0609ms total)
T304C 000:877 JLINK_WriteReg(R1, 0x00001000)  returns 0x00 (0000ms, 0609ms total)
T304C 000:877 JLINK_WriteReg(R2, 0x000000FF)  returns 0x00 (0000ms, 0609ms total)
T304C 000:877 JLINK_WriteReg(R3, 0x00000000)  returns 0x00 (0000ms, 0609ms total)
T304C 000:877 JLINK_WriteReg(R4, 0x00000000)  returns 0x00 (0000ms, 0609ms total)
T304C 000:877 JLINK_WriteReg(R5, 0x00000000)  returns 0x00 (0000ms, 0609ms total)
T304C 000:877 JLINK_WriteReg(R6, 0x00000000)  returns 0x00 (0000ms, 0609ms total)
T304C 000:877 JLINK_WriteReg(R7, 0x00000000)  returns 0x00 (0000ms, 0609ms total)
T304C 000:877 JLINK_WriteReg(R8, 0x00000000)  returns 0x00 (0001ms, 0610ms total)
T304C 000:878 JLINK_WriteReg(R9, 0x100001DC)  returns 0x00 (0000ms, 0610ms total)
T304C 000:878 JLINK_WriteReg(R10, 0x00000000)  returns 0x00 (0000ms, 0610ms total)
T304C 000:878 JLINK_WriteReg(R11, 0x00000000)  returns 0x00 (0000ms, 0610ms total)
T304C 000:878 JLINK_WriteReg(R12, 0x00000000)  returns 0x00 (0000ms, 0610ms total)
T304C 000:878 JLINK_WriteReg(R13, 0x10000800)  returns 0x00 (0000ms, 0610ms total)
T304C 000:878 JLINK_WriteReg(R14, 0x10000001)  returns 0x00 (0000ms, 0610ms total)
T304C 000:878 JLINK_WriteReg(R15, 0x10000020)  returns 0x00 (0000ms, 0610ms total)
T304C 000:878 JLINK_WriteReg(XPSR, 0x01000000)  returns 0x00 (0000ms, 0610ms total)
T304C 000:878 JLINK_WriteReg(MSP, 0x10000800)  returns 0x00 (0000ms, 0610ms total)
T304C 000:878 JLINK_WriteReg(PSP, 0x10000800)  returns 0x00 (0000ms, 0610ms total)
T304C 000:878 JLINK_WriteReg(CFBP, 0x00000000)  returns 0x00 (0000ms, 0610ms total)
T304C 000:878 JLINK_SetBPEx(Addr = 0x10000000, Type = 0xFFFFFFF2)  returns 0x00000004 (0000ms, 0610ms total)
T304C 000:878 JLINK_Go() >0x2C8 JTAG> >0x1E8 JTAG> >0x1E8 JTAG> >0x1E8 JTAG> >0x1E8 JTAG> >0x1E8 JTAG> >0x1E8 JTAG> >0x218 JTAG> >0x218 JTAG> (0015ms, 0625ms total)
T304C 000:893 JLINK_IsHalted() >0x170 JTAG> >0x1598 JTAG>  returns TRUE (0012ms, 0637ms total)
T304C 000:905 JLINK_ReadReg(R15)  returns 0x10000000 (0000ms, 0625ms total)
T304C 000:905 JLINK_ClrBPEx(BPHandle = 0x00000004)  returns 0x00 (0000ms, 0625ms total)
T304C 000:905 JLINK_ReadReg(R0)  returns 0x00000001 (0000ms, 0625ms total)
T304C 000:905 JLINK_WriteReg(R0, 0x00001000)  returns 0x00 (0001ms, 0626ms total)
T304C 000:906 JLINK_WriteReg(R1, 0x00001000)  returns 0x00 (0000ms, 0626ms total)
T304C 000:906 JLINK_WriteReg(R2, 0x000000FF)  returns 0x00 (0000ms, 0626ms total)
T304C 000:906 JLINK_WriteReg(R3, 0x00000000)  returns 0x00 (0000ms, 0626ms total)
T304C 000:906 JLINK_WriteReg(R4, 0x00000000)  returns 0x00 (0000ms, 0626ms total)
T304C 000:906 JLINK_WriteReg(R5, 0x00000000)  returns 0x00 (0000ms, 0626ms total)
T304C 000:906 JLINK_WriteReg(R6, 0x00000000)  returns 0x00 (0000ms, 0626ms total)
T304C 000:906 JLINK_WriteReg(R7, 0x00000000)  returns 0x00 (0000ms, 0626ms total)
T304C 000:906 JLINK_WriteReg(R8, 0x00000000)  returns 0x00 (0000ms, 0626ms total)
T304C 000:906 JLINK_WriteReg(R9, 0x100001DC)  returns 0x00 (0000ms, 0626ms total)
T304C 000:906 JLINK_WriteReg(R10, 0x00000000)  returns 0x00 (0001ms, 0627ms total)
T304C 000:907 JLINK_WriteReg(R11, 0x00000000)  returns 0x00 (0000ms, 0627ms total)
T304C 000:907 JLINK_WriteReg(R12, 0x00000000)  returns 0x00 (0000ms, 0627ms total)
T304C 000:907 JLINK_WriteReg(R13, 0x10000800)  returns 0x00 (0000ms, 0627ms total)
T304C 000:907 JLINK_WriteReg(R14, 0x10000001)  returns 0x00 (0000ms, 0627ms total)
T304C 000:907 JLINK_WriteReg(R15, 0x10000110)  returns 0x00 (0000ms, 0627ms total)
T304C 000:907 JLINK_WriteReg(XPSR, 0x01000000)  returns 0x00 (0000ms, 0627ms total)
T304C 000:907 JLINK_WriteReg(MSP, 0x10000800)  returns 0x00 (0000ms, 0627ms total)
T304C 000:907 JLINK_WriteReg(PSP, 0x10000800)  returns 0x00 (0001ms, 0628ms total)
T304C 000:908 JLINK_WriteReg(CFBP, 0x00000000)  returns 0x00 (0000ms, 0628ms total)
T304C 000:908 JLINK_SetBPEx(Addr = 0x10000000, Type = 0xFFFFFFF2)  returns 0x00000005 (0000ms, 0628ms total)
T304C 000:908 JLINK_Go() >0x2C8 JTAG> >0x1E8 JTAG> >0x1E8 JTAG> >0x1E8 JTAG> >0x218 JTAG> >0x218 JTAG> (0009ms, 0637ms total)
T304C 000:917 JLINK_IsHalted() >0x170 JTAG>  returns FALSE (0001ms, 0638ms total)
T304C 001:025 JLINK_IsHalted() >0x170 JTAG> >0x1598 JTAG>  returns TRUE (0016ms, 0653ms total)
T304C 001:041 JLINK_ReadReg(R15)  returns 0x10000000 (0000ms, 0637ms total)
T304C 001:041 JLINK_ClrBPEx(BPHandle = 0x00000005)  returns 0x00 (0000ms, 0637ms total)
T304C 001:041 JLINK_ReadReg(R0)  returns 0x00000000 (0000ms, 0637ms total)
T304C 001:042 JLINK_WriteReg(R0, 0x00002000)  returns 0x00 (0000ms, 0637ms total)
T304C 001:042 JLINK_WriteReg(R1, 0x00001000)  returns 0x00 (0000ms, 0637ms total)
T304C 001:042 JLINK_WriteReg(R2, 0x000000FF)  returns 0x00 (0000ms, 0637ms total)
T304C 001:042 JLINK_WriteReg(R3, 0x00000000)  returns 0x00 (0000ms, 0637ms total)
T304C 001:042 JLINK_WriteReg(R4, 0x00000000)  returns 0x00 (0000ms, 0637ms total)
T304C 001:042 JLINK_WriteReg(R5, 0x00000000)  returns 0x00 (0000ms, 0637ms total)
T304C 001:042 JLINK_WriteReg(R6, 0x00000000)  returns 0x00 (0000ms, 0637ms total)
T304C 001:042 JLINK_WriteReg(R7, 0x00000000)  returns 0x00 (0000ms, 0637ms total)
T304C 001:042 JLINK_WriteReg(R8, 0x00000000)  returns 0x00 (0000ms, 0637ms total)
T304C 001:042 JLINK_WriteReg(R9, 0x100001DC)  returns 0x00 (0000ms, 0637ms total)
T304C 001:042 JLINK_WriteReg(R10, 0x00000000)  returns 0x00 (0000ms, 0637ms total)
T304C 001:042 JLINK_WriteReg(R11, 0x00000000)  returns 0x00 (0000ms, 0637ms total)
T304C 001:042 JLINK_WriteReg(R12, 0x00000000)  returns 0x00 (0000ms, 0637ms total)
T304C 001:042 JLINK_WriteReg(R13, 0x10000800)  returns 0x00 (0001ms, 0638ms total)
T304C 001:043 JLINK_WriteReg(R14, 0x10000001)  returns 0x00 (0000ms, 0638ms total)
T304C 001:043 JLINK_WriteReg(R15, 0x10000020)  returns 0x00 (0000ms, 0638ms total)
T304C 001:043 JLINK_WriteReg(XPSR, 0x01000000)  returns 0x00 (0000ms, 0638ms total)
T304C 001:043 JLINK_WriteReg(MSP, 0x10000800)  returns 0x00 (0000ms, 0638ms total)
T304C 001:043 JLINK_WriteReg(PSP, 0x10000800)  returns 0x00 (0000ms, 0638ms total)
T304C 001:043 JLINK_WriteReg(CFBP, 0x00000000)  returns 0x00 (0000ms, 0638ms total)
T304C 001:043 JLINK_SetBPEx(Addr = 0x10000000, Type = 0xFFFFFFF2)  returns 0x00000006 (0000ms, 0638ms total)
T304C 001:043 JLINK_Go() >0x2C8 JTAG> >0x1E8 JTAG> >0x1E8 JTAG> >0x1E8 JTAG> >0x1E8 JTAG> >0x1E8 JTAG> >0x1E8 JTAG> >0x218 JTAG> >0x218 JTAG> (0014ms, 0652ms total)
T304C 001:058 JLINK_IsHalted() >0x170 JTAG> >0x1598 JTAG>  returns TRUE (0013ms, 0666ms total)
T304C 001:071 JLINK_ReadReg(R15)  returns 0x10000000 (0000ms, 0653ms total)
T304C 001:071 JLINK_ClrBPEx(BPHandle = 0x00000006)  returns 0x00 (0000ms, 0653ms total)
T304C 001:071 JLINK_ReadReg(R0)  returns 0x00000001 (0000ms, 0653ms total)
T304C 001:071 JLINK_WriteReg(R0, 0x00002000)  returns 0x00 (0000ms, 0653ms total)
T304C 001:071 JLINK_WriteReg(R1, 0x00001000)  returns 0x00 (0001ms, 0654ms total)
T304C 001:072 JLINK_WriteReg(R2, 0x000000FF)  returns 0x00 (0000ms, 0654ms total)
T304C 001:072 JLINK_WriteReg(R3, 0x00000000)  returns 0x00 (0000ms, 0654ms total)
T304C 001:072 JLINK_WriteReg(R4, 0x00000000)  returns 0x00 (0000ms, 0654ms total)
T304C 001:072 JLINK_WriteReg(R5, 0x00000000)  returns 0x00 (0000ms, 0654ms total)
T304C 001:072 JLINK_WriteReg(R6, 0x00000000)  returns 0x00 (0000ms, 0654ms total)
T304C 001:072 JLINK_WriteReg(R7, 0x00000000)  returns 0x00 (0000ms, 0654ms total)
T304C 001:072 JLINK_WriteReg(R8, 0x00000000)  returns 0x00 (0000ms, 0654ms total)
T304C 001:072 JLINK_WriteReg(R9, 0x100001DC)  returns 0x00 (0000ms, 0654ms total)
T304C 001:072 JLINK_WriteReg(R10, 0x00000000)  returns 0x00 (0000ms, 0654ms total)
T304C 001:072 JLINK_WriteReg(R11, 0x00000000)  returns 0x00 (0000ms, 0654ms total)
T304C 001:072 JLINK_WriteReg(R12, 0x00000000)  returns 0x00 (0000ms, 0654ms total)
T304C 001:073 JLINK_WriteReg(R13, 0x10000800)  returns 0x00 (0000ms, 0655ms total)
T304C 001:073 JLINK_WriteReg(R14, 0x10000001)  returns 0x00 (0000ms, 0655ms total)
T304C 001:073 JLINK_WriteReg(R15, 0x10000110)  returns 0x00 (0000ms, 0655ms total)
T304C 001:073 JLINK_WriteReg(XPSR, 0x01000000)  returns 0x00 (0000ms, 0655ms total)
T304C 001:073 JLINK_WriteReg(MSP, 0x10000800)  returns 0x00 (0000ms, 0655ms total)
T304C 001:073 JLINK_WriteReg(PSP, 0x10000800)  returns 0x00 (0000ms, 0655ms total)
T304C 001:073 JLINK_WriteReg(CFBP, 0x00000000)  returns 0x00 (0000ms, 0655ms total)
T304C 001:073 JLINK_SetBPEx(Addr = 0x10000000, Type = 0xFFFFFFF2)  returns 0x00000007 (0000ms, 0655ms total)
T304C 001:073 JLINK_Go() >0x2C8 JTAG> >0x1E8 JTAG> >0x1E8 JTAG> >0x1E8 JTAG> >0x218 JTAG> >0x218 JTAG> (0012ms, 0667ms total)
T304C 001:085 JLINK_IsHalted() >0x170 JTAG>  returns FALSE (0002ms, 0669ms total)
T304C 001:098 JLINK_IsHalted() >0x170 JTAG>  returns FALSE (0001ms, 0668ms total)
T304C 001:110 JLINK_IsHalted() >0x170 JTAG>  returns FALSE (0002ms, 0669ms total)
T304C 001:114 JLINK_IsHalted() >0x170 JTAG>  returns FALSE (0001ms, 0668ms total)
T304C 001:117 JLINK_IsHalted() >0x170 JTAG>  returns FALSE (0001ms, 0668ms total)
T304C 001:155 JLINK_IsHalted() >0x170 JTAG>  returns FALSE (0000ms, 0667ms total)
T304C 001:158 JLINK_IsHalted() >0x170 JTAG>  returns FALSE (0001ms, 0668ms total)
T304C 001:161 JLINK_IsHalted() >0x170 JTAG>  returns FALSE (0000ms, 0667ms total)
T304C 001:164 JLINK_IsHalted() >0x170 JTAG>  returns FALSE (0000ms, 0667ms total)
T304C 001:167 JLINK_IsHalted() >0x170 JTAG>  returns FALSE (0001ms, 0668ms total)
T304C 001:170 JLINK_IsHalted() >0x170 JTAG>  returns FALSE (0000ms, 0667ms total)
T304C 001:173 JLINK_IsHalted() >0x170 JTAG>  returns FALSE (0001ms, 0668ms total)
T304C 001:176 JLINK_IsHalted() >0x170 JTAG>  returns FALSE (0000ms, 0667ms total)
T304C 001:179 JLINK_IsHalted() >0x170 JTAG>  returns FALSE (0001ms, 0668ms total)
T304C 001:182 JLINK_IsHalted() >0x170 JTAG>  returns FALSE (0001ms, 0668ms total)
T304C 001:185 JLINK_IsHalted() >0x170 JTAG> >0x1598 JTAG>  returns TRUE (0011ms, 0678ms total)
T304C 001:196 JLINK_ReadReg(R15)  returns 0x10000000 (0000ms, 0667ms total)
T304C 001:196 JLINK_ClrBPEx(BPHandle = 0x00000007)  returns 0x00 (0000ms, 0667ms total)
T304C 001:196 JLINK_ReadReg(R0)  returns 0x00000000 (0000ms, 0667ms total)
T304C 001:197 JLINK_WriteReg(R0, 0x00003000)  returns 0x00 (0000ms, 0667ms total)
T304C 001:197 JLINK_WriteReg(R1, 0x00001000)  returns 0x00 (0000ms, 0667ms total)
T304C 001:197 JLINK_WriteReg(R2, 0x000000FF)  returns 0x00 (0000ms, 0667ms total)
T304C 001:197 JLINK_WriteReg(R3, 0x00000000)  returns 0x00 (0000ms, 0667ms total)
T304C 001:197 JLINK_WriteReg(R4, 0x00000000)  returns 0x00 (0000ms, 0667ms total)
T304C 001:197 JLINK_WriteReg(R5, 0x00000000)  returns 0x00 (0000ms, 0667ms total)
T304C 001:197 JLINK_WriteReg(R6, 0x00000000)  returns 0x00 (0000ms, 0667ms total)
T304C 001:197 JLINK_WriteReg(R7, 0x00000000)  returns 0x00 (0000ms, 0667ms total)
T304C 001:197 JLINK_WriteReg(R8, 0x00000000)  returns 0x00 (0000ms, 0667ms total)
T304C 001:197 JLINK_WriteReg(R9, 0x100001DC)  returns 0x00 (0000ms, 0667ms total)
T304C 001:197 JLINK_WriteReg(R10, 0x00000000)  returns 0x00 (0000ms, 0667ms total)
T304C 001:197 JLINK_WriteReg(R11, 0x00000000)  returns 0x00 (0000ms, 0667ms total)
T304C 001:197 JLINK_WriteReg(R12, 0x00000000)  returns 0x00 (0000ms, 0667ms total)
T304C 001:197 JLINK_WriteReg(R13, 0x10000800)  returns 0x00 (0000ms, 0667ms total)
T304C 001:197 JLINK_WriteReg(R14, 0x10000001)  returns 0x00 (0000ms, 0667ms total)
T304C 001:197 JLINK_WriteReg(R15, 0x10000020)  returns 0x00 (0000ms, 0667ms total)
T304C 001:197 JLINK_WriteReg(XPSR, 0x01000000)  returns 0x00 (0000ms, 0667ms total)
T304C 001:197 JLINK_WriteReg(MSP, 0x10000800)  returns 0x00 (0000ms, 0667ms total)
T304C 001:197 JLINK_WriteReg(PSP, 0x10000800)  returns 0x00 (0000ms, 0667ms total)
T304C 001:197 JLINK_WriteReg(CFBP, 0x00000000)  returns 0x00 (0000ms, 0667ms total)
T304C 001:197 JLINK_SetBPEx(Addr = 0x10000000, Type = 0xFFFFFFF2)  returns 0x00000008 (0000ms, 0667ms total)
T304C 001:197 JLINK_Go() >0x2C8 JTAG> >0x1E8 JTAG> >0x1E8 JTAG> >0x1E8 JTAG> >0x1E8 JTAG> >0x1E8 JTAG> >0x1E8 JTAG> >0x218 JTAG> >0x218 JTAG> (0016ms, 0683ms total)
T304C 001:213 JLINK_IsHalted() >0x170 JTAG> >0x1598 JTAG>  returns TRUE (0013ms, 0696ms total)
T304C 001:226 JLINK_ReadReg(R15)  returns 0x10000000 (0000ms, 0683ms total)
T304C 001:226 JLINK_ClrBPEx(BPHandle = 0x00000008)  returns 0x00 (0000ms, 0683ms total)
T304C 001:226 JLINK_ReadReg(R0)  returns 0x00000001 (0000ms, 0683ms total)
T304C 001:226 JLINK_WriteReg(R0, 0x00003000)  returns 0x00 (0000ms, 0683ms total)
T304C 001:226 JLINK_WriteReg(R1, 0x00001000)  returns 0x00 (0000ms, 0683ms total)
T304C 001:226 JLINK_WriteReg(R2, 0x000000FF)  returns 0x00 (0000ms, 0683ms total)
T304C 001:226 JLINK_WriteReg(R3, 0x00000000)  returns 0x00 (0000ms, 0683ms total)
T304C 001:226 JLINK_WriteReg(R4, 0x00000000)  returns 0x00 (0000ms, 0683ms total)
T304C 001:226 JLINK_WriteReg(R5, 0x00000000)  returns 0x00 (0000ms, 0683ms total)
T304C 001:226 JLINK_WriteReg(R6, 0x00000000)  returns 0x00 (0000ms, 0683ms total)
T304C 001:226 JLINK_WriteReg(R7, 0x00000000)  returns 0x00 (0000ms, 0683ms total)
T304C 001:226 JLINK_WriteReg(R8, 0x00000000)  returns 0x00 (0000ms, 0683ms total)
T304C 001:226 JLINK_WriteReg(R9, 0x100001DC)  returns 0x00 (0000ms, 0683ms total)
T304C 001:226 JLINK_WriteReg(R10, 0x00000000)  returns 0x00 (0000ms, 0683ms total)
T304C 001:226 JLINK_WriteReg(R11, 0x00000000)  returns 0x00 (0000ms, 0683ms total)
T304C 001:226 JLINK_WriteReg(R12, 0x00000000)  returns 0x00 (0000ms, 0683ms total)
T304C 001:226 JLINK_WriteReg(R13, 0x10000800)  returns 0x00 (0000ms, 0683ms total)
T304C 001:226 JLINK_WriteReg(R14, 0x10000001)  returns 0x00 (0000ms, 0683ms total)
T304C 001:226 JLINK_WriteReg(R15, 0x10000110)  returns 0x00 (0000ms, 0683ms total)
T304C 001:226 JLINK_WriteReg(XPSR, 0x01000000)  returns 0x00 (0000ms, 0683ms total)
T304C 001:226 JLINK_WriteReg(MSP, 0x10000800)  returns 0x00 (0000ms, 0683ms total)
T304C 001:226 JLINK_WriteReg(PSP, 0x10000800)  returns 0x00 (0001ms, 0684ms total)
T304C 001:227 JLINK_WriteReg(CFBP, 0x00000000)  returns 0x00 (0000ms, 0684ms total)
T304C 001:227 JLINK_SetBPEx(Addr = 0x10000000, Type = 0xFFFFFFF2)  returns 0x00000009 (0000ms, 0684ms total)
T304C 001:227 JLINK_Go() >0x2C8 JTAG> >0x1E8 JTAG> >0x1E8 JTAG> >0x218 JTAG> >0x218 JTAG> (0010ms, 0694ms total)
T304C 001:237 JLINK_IsHalted() >0x170 JTAG>  returns FALSE (0002ms, 0696ms total)
T304C 001:255 JLINK_IsHalted() >0x170 JTAG>  returns FALSE (0001ms, 0695ms total)
T304C 001:259 JLINK_IsHalted() >0x170 JTAG>  returns FALSE (0001ms, 0695ms total)
T304C 001:262 JLINK_IsHalted() >0x170 JTAG>  returns FALSE (0001ms, 0695ms total)
T304C 001:265 JLINK_IsHalted() >0x170 JTAG>  returns FALSE (0001ms, 0695ms total)
T304C 001:269 JLINK_IsHalted() >0x170 JTAG>  returns FALSE (0000ms, 0694ms total)
T304C 001:271 JLINK_IsHalted() >0x170 JTAG>  returns FALSE (0001ms, 0695ms total)
T304C 001:274 JLINK_IsHalted() >0x170 JTAG>  returns FALSE (0001ms, 0695ms total)
T304C 001:277 JLINK_IsHalted() >0x170 JTAG>  returns FALSE (0001ms, 0695ms total)
T304C 001:280 JLINK_IsHalted() >0x170 JTAG>  returns FALSE (0001ms, 0695ms total)
T304C 001:283 JLINK_IsHalted() >0x170 JTAG>  returns FALSE (0001ms, 0695ms total)
T304C 001:286 JLINK_IsHalted() >0x170 JTAG>  returns FALSE (0001ms, 0695ms total)
T304C 001:289 JLINK_IsHalted() >0x170 JTAG>  returns FALSE (0001ms, 0695ms total)
T304C 001:292 JLINK_IsHalted() >0x170 JTAG>  returns FALSE (0002ms, 0696ms total)
T304C 001:296 JLINK_IsHalted() >0x170 JTAG>  returns FALSE (0001ms, 0695ms total)
T304C 001:299 JLINK_IsHalted() >0x170 JTAG>  returns FALSE (0001ms, 0695ms total)
T304C 001:302 JLINK_IsHalted() >0x170 JTAG>  returns FALSE (0001ms, 0695ms total)
T304C 001:305 JLINK_IsHalted() >0x170 JTAG>  returns FALSE (0002ms, 0696ms total)
T304C 001:309 JLINK_IsHalted() >0x170 JTAG>  returns FALSE (0002ms, 0696ms total)
T304C 001:313 JLINK_IsHalted() >0x170 JTAG>  returns FALSE (0002ms, 0696ms total)
T304C 001:324 JLINK_IsHalted() >0x170 JTAG>  returns FALSE (0001ms, 0695ms total)
T304C 001:328 JLINK_IsHalted() >0x170 JTAG>  returns FALSE (0000ms, 0694ms total)
T304C 001:330 JLINK_IsHalted() >0x170 JTAG>  returns FALSE (0001ms, 0695ms total)
T304C 001:367 JLINK_IsHalted() >0x170 JTAG> >0x1598 JTAG>  returns TRUE (0013ms, 0707ms total)
T304C 001:380 JLINK_ReadReg(R15)  returns 0x10000000 (0000ms, 0694ms total)
T304C 001:380 JLINK_ClrBPEx(BPHandle = 0x00000009)  returns 0x00 (0000ms, 0694ms total)
T304C 001:380 JLINK_ReadReg(R0)  returns 0x00000000 (0000ms, 0694ms total)
T304C 001:381 JLINK_WriteReg(R0, 0x00004000)  returns 0x00 (0000ms, 0694ms total)
T304C 001:381 JLINK_WriteReg(R1, 0x00001000)  returns 0x00 (0000ms, 0694ms total)
T304C 001:381 JLINK_WriteReg(R2, 0x000000FF)  returns 0x00 (0000ms, 0694ms total)
T304C 001:381 JLINK_WriteReg(R3, 0x00000000)  returns 0x00 (0000ms, 0694ms total)
T304C 001:381 JLINK_WriteReg(R4, 0x00000000)  returns 0x00 (0000ms, 0694ms total)
T304C 001:381 JLINK_WriteReg(R5, 0x00000000)  returns 0x00 (0000ms, 0694ms total)
T304C 001:381 JLINK_WriteReg(R6, 0x00000000)  returns 0x00 (0000ms, 0694ms total)
T304C 001:381 JLINK_WriteReg(R7, 0x00000000)  returns 0x00 (0000ms, 0694ms total)
T304C 001:381 JLINK_WriteReg(R8, 0x00000000)  returns 0x00 (0000ms, 0694ms total)
T304C 001:381 JLINK_WriteReg(R9, 0x100001DC)  returns 0x00 (0000ms, 0694ms total)
T304C 001:381 JLINK_WriteReg(R10, 0x00000000)  returns 0x00 (0000ms, 0694ms total)
T304C 001:381 JLINK_WriteReg(R11, 0x00000000)  returns 0x00 (0000ms, 0694ms total)
T304C 001:381 JLINK_WriteReg(R12, 0x00000000)  returns 0x00 (0000ms, 0694ms total)
T304C 001:381 JLINK_WriteReg(R13, 0x10000800)  returns 0x00 (0000ms, 0694ms total)
T304C 001:381 JLINK_WriteReg(R14, 0x10000001)  returns 0x00 (0000ms, 0694ms total)
T304C 001:381 JLINK_WriteReg(R15, 0x10000020)  returns 0x00 (0000ms, 0694ms total)
T304C 001:381 JLINK_WriteReg(XPSR, 0x01000000)  returns 0x00 (0000ms, 0694ms total)
T304C 001:381 JLINK_WriteReg(MSP, 0x10000800)  returns 0x00 (0000ms, 0694ms total)
T304C 001:381 JLINK_WriteReg(PSP, 0x10000800)  returns 0x00 (0000ms, 0694ms total)
T304C 001:381 JLINK_WriteReg(CFBP, 0x00000000)  returns 0x00 (0000ms, 0694ms total)
T304C 001:381 JLINK_SetBPEx(Addr = 0x10000000, Type = 0xFFFFFFF2)  returns 0x0000000A (0000ms, 0694ms total)
T304C 001:381 JLINK_Go() >0x2C8 JTAG> >0x1E8 JTAG> >0x1E8 JTAG> >0x1E8 JTAG> >0x1E8 JTAG> >0x1E8 JTAG> >0x1E8 JTAG> >0x218 JTAG> >0x218 JTAG> (0016ms, 0710ms total)
T304C 001:397 JLINK_IsHalted() >0x170 JTAG> >0x1598 JTAG>  returns TRUE (0014ms, 0724ms total)
T304C 001:411 JLINK_ReadReg(R15)  returns 0x10000000 (0000ms, 0710ms total)
T304C 001:411 JLINK_ClrBPEx(BPHandle = 0x0000000A)  returns 0x00 (0000ms, 0710ms total)
T304C 001:411 JLINK_ReadReg(R0)  returns 0x00000001 (0000ms, 0710ms total)
T304C 001:411 JLINK_WriteReg(R0, 0x00004000)  returns 0x00 (0000ms, 0710ms total)
T304C 001:411 JLINK_WriteReg(R1, 0x00001000)  returns 0x00 (0000ms, 0710ms total)
T304C 001:411 JLINK_WriteReg(R2, 0x000000FF)  returns 0x00 (0000ms, 0710ms total)
T304C 001:411 JLINK_WriteReg(R3, 0x00000000)  returns 0x00 (0000ms, 0710ms total)
T304C 001:411 JLINK_WriteReg(R4, 0x00000000)  returns 0x00 (0000ms, 0710ms total)
T304C 001:411 JLINK_WriteReg(R5, 0x00000000)  returns 0x00 (0000ms, 0710ms total)
T304C 001:411 JLINK_WriteReg(R6, 0x00000000)  returns 0x00 (0000ms, 0710ms total)
T304C 001:411 JLINK_WriteReg(R7, 0x00000000)  returns 0x00 (0000ms, 0710ms total)
T304C 001:411 JLINK_WriteReg(R8, 0x00000000)  returns 0x00 (0000ms, 0710ms total)
T304C 001:411 JLINK_WriteReg(R9, 0x100001DC)  returns 0x00 (0000ms, 0710ms total)
T304C 001:411 JLINK_WriteReg(R10, 0x00000000)  returns 0x00 (0000ms, 0710ms total)
T304C 001:411 JLINK_WriteReg(R11, 0x00000000)  returns 0x00 (0000ms, 0710ms total)
T304C 001:411 JLINK_WriteReg(R12, 0x00000000)  returns 0x00 (0000ms, 0710ms total)
T304C 001:412 JLINK_WriteReg(R13, 0x10000800)  returns 0x00 (0000ms, 0711ms total)
T304C 001:412 JLINK_WriteReg(R14, 0x10000001)  returns 0x00 (0000ms, 0711ms total)
T304C 001:412 JLINK_WriteReg(R15, 0x10000110)  returns 0x00 (0000ms, 0711ms total)
T304C 001:412 JLINK_WriteReg(XPSR, 0x01000000)  returns 0x00 (0000ms, 0711ms total)
T304C 001:412 JLINK_WriteReg(MSP, 0x10000800)  returns 0x00 (0000ms, 0711ms total)
T304C 001:412 JLINK_WriteReg(PSP, 0x10000800)  returns 0x00 (0000ms, 0711ms total)
T304C 001:412 JLINK_WriteReg(CFBP, 0x00000000)  returns 0x00 (0000ms, 0711ms total)
T304C 001:412 JLINK_SetBPEx(Addr = 0x10000000, Type = 0xFFFFFFF2)  returns 0x0000000B (0000ms, 0711ms total)
T304C 001:412 JLINK_Go() >0x2C8 JTAG> >0x1E8 JTAG> >0x1E8 JTAG> >0x1E8 JTAG> >0x218 JTAG> >0x218 JTAG> (0011ms, 0722ms total)
T304C 001:423 JLINK_IsHalted() >0x170 JTAG>  returns FALSE (0001ms, 0723ms total)
T304C 001:436 JLINK_IsHalted() >0x170 JTAG>  returns FALSE (0002ms, 0724ms total)
T304C 001:440 JLINK_IsHalted() >0x170 JTAG>  returns FALSE (0001ms, 0723ms total)
T304C 001:443 JLINK_IsHalted() >0x170 JTAG>  returns FALSE (0001ms, 0723ms total)
T304C 001:485 JLINK_IsHalted() >0x170 JTAG>  returns FALSE (0002ms, 0724ms total)
T304C 001:489 JLINK_IsHalted() >0x170 JTAG>  returns FALSE (0001ms, 0723ms total)
T304C 001:492 JLINK_IsHalted() >0x170 JTAG>  returns FALSE (0002ms, 0724ms total)
T304C 001:496 JLINK_IsHalted() >0x170 JTAG>  returns FALSE (0002ms, 0724ms total)
T304C 001:500 JLINK_IsHalted() >0x170 JTAG>  returns FALSE (0002ms, 0724ms total)
T304C 001:505 JLINK_IsHalted() >0x170 JTAG>  returns FALSE (0002ms, 0724ms total)
T304C 001:509 JLINK_IsHalted() >0x170 JTAG>  returns FALSE (0002ms, 0724ms total)
T304C 001:513 JLINK_IsHalted() >0x170 JTAG>  returns FALSE (0001ms, 0723ms total)
T304C 001:516 JLINK_IsHalted() >0x170 JTAG>  returns FALSE (0002ms, 0724ms total)
T304C 001:520 JLINK_IsHalted() >0x170 JTAG>  returns FALSE (0001ms, 0723ms total)
T304C 001:523 JLINK_IsHalted() >0x170 JTAG> >0x1598 JTAG>  returns TRUE (0013ms, 0735ms total)
T304C 001:536 JLINK_ReadReg(R15)  returns 0x10000000 (0000ms, 0722ms total)
T304C 001:536 JLINK_ClrBPEx(BPHandle = 0x0000000B)  returns 0x00 (0000ms, 0722ms total)
T304C 001:536 JLINK_ReadReg(R0)  returns 0x00000000 (0000ms, 0722ms total)
T304C 001:540 JLINK_WriteReg(R0, 0x00005000)  returns 0x00 (0000ms, 0724ms total)
T304C 001:540 JLINK_WriteReg(R1, 0x00001000)  returns 0x00 (0000ms, 0724ms total)
T304C 001:540 JLINK_WriteReg(R2, 0x000000FF)  returns 0x00 (0001ms, 0725ms total)
T304C 001:541 JLINK_WriteReg(R3, 0x00000000)  returns 0x00 (0000ms, 0725ms total)
T304C 001:541 JLINK_WriteReg(R4, 0x00000000)  returns 0x00 (0000ms, 0725ms total)
T304C 001:541 JLINK_WriteReg(R5, 0x00000000)  returns 0x00 (0000ms, 0725ms total)
T304C 001:541 JLINK_WriteReg(R6, 0x00000000)  returns 0x00 (0000ms, 0725ms total)
T304C 001:541 JLINK_WriteReg(R7, 0x00000000)  returns 0x00 (0000ms, 0725ms total)
T304C 001:541 JLINK_WriteReg(R8, 0x00000000)  returns 0x00 (0000ms, 0725ms total)
T304C 001:541 JLINK_WriteReg(R9, 0x100001DC)  returns 0x00 (0000ms, 0725ms total)
T304C 001:542 JLINK_WriteReg(R10, 0x00000000)  returns 0x00 (0000ms, 0726ms total)
T304C 001:542 JLINK_WriteReg(R11, 0x00000000)  returns 0x00 (0000ms, 0726ms total)
T304C 001:542 JLINK_WriteReg(R12, 0x00000000)  returns 0x00 (0000ms, 0726ms total)
T304C 001:542 JLINK_WriteReg(R13, 0x10000800)  returns 0x00 (0000ms, 0726ms total)
T304C 001:542 JLINK_WriteReg(R14, 0x10000001)  returns 0x00 (0000ms, 0726ms total)
T304C 001:542 JLINK_WriteReg(R15, 0x10000020)  returns 0x00 (0000ms, 0726ms total)
T304C 001:542 JLINK_WriteReg(XPSR, 0x01000000)  returns 0x00 (0000ms, 0726ms total)
T304C 001:542 JLINK_WriteReg(MSP, 0x10000800)  returns 0x00 (0000ms, 0726ms total)
T304C 001:543 JLINK_WriteReg(PSP, 0x10000800)  returns 0x00 (0000ms, 0726ms total)
T304C 001:543 JLINK_WriteReg(CFBP, 0x00000000)  returns 0x00 (0000ms, 0726ms total)
T304C 001:543 JLINK_SetBPEx(Addr = 0x10000000, Type = 0xFFFFFFF2)  returns 0x0000000C (0000ms, 0726ms total)
T304C 001:543 JLINK_Go() >0x2C8 JTAG> >0x1E8 JTAG> >0x1E8 JTAG> >0x1E8 JTAG> >0x1E8 JTAG> >0x1E8 JTAG> >0x1E8 JTAG> >0x218 JTAG> >0x218 JTAG> (0015ms, 0741ms total)
T304C 001:558 JLINK_IsHalted() >0x170 JTAG> >0x1598 JTAG>  returns TRUE (0013ms, 0754ms total)
T304C 001:571 JLINK_ReadReg(R15)  returns 0x10000000 (0000ms, 0741ms total)
T304C 001:571 JLINK_ClrBPEx(BPHandle = 0x0000000C)  returns 0x00 (0000ms, 0741ms total)
T304C 001:571 JLINK_ReadReg(R0)  returns 0x00000001 (0000ms, 0741ms total)
T304C 001:571 JLINK_WriteReg(R0, 0x00005000)  returns 0x00 (0000ms, 0741ms total)
T304C 001:571 JLINK_WriteReg(R1, 0x00001000)  returns 0x00 (0000ms, 0741ms total)
T304C 001:571 JLINK_WriteReg(R2, 0x000000FF)  returns 0x00 (0001ms, 0742ms total)
T304C 001:572 JLINK_WriteReg(R3, 0x00000000)  returns 0x00 (0000ms, 0742ms total)
T304C 001:572 JLINK_WriteReg(R4, 0x00000000)  returns 0x00 (0000ms, 0742ms total)
T304C 001:572 JLINK_WriteReg(R5, 0x00000000)  returns 0x00 (0000ms, 0742ms total)
T304C 001:572 JLINK_WriteReg(R6, 0x00000000)  returns 0x00 (0000ms, 0742ms total)
T304C 001:572 JLINK_WriteReg(R7, 0x00000000)  returns 0x00 (0000ms, 0742ms total)
T304C 001:572 JLINK_WriteReg(R8, 0x00000000)  returns 0x00 (0000ms, 0742ms total)
T304C 001:572 JLINK_WriteReg(R9, 0x100001DC)  returns 0x00 (0000ms, 0742ms total)
T304C 001:572 JLINK_WriteReg(R10, 0x00000000)  returns 0x00 (0000ms, 0742ms total)
T304C 001:573 JLINK_WriteReg(R11, 0x00000000)  returns 0x00 (0000ms, 0743ms total)
T304C 001:573 JLINK_WriteReg(R12, 0x00000000)  returns 0x00 (0000ms, 0743ms total)
T304C 001:573 JLINK_WriteReg(R13, 0x10000800)  returns 0x00 (0000ms, 0743ms total)
T304C 001:573 JLINK_WriteReg(R14, 0x10000001)  returns 0x00 (0000ms, 0743ms total)
T304C 001:573 JLINK_WriteReg(R15, 0x10000110)  returns 0x00 (0000ms, 0743ms total)
T304C 001:573 JLINK_WriteReg(XPSR, 0x01000000)  returns 0x00 (0000ms, 0743ms total)
T304C 001:574 JLINK_WriteReg(MSP, 0x10000800)  returns 0x00 (0000ms, 0744ms total)
T304C 001:574 JLINK_WriteReg(PSP, 0x10000800)  returns 0x00 (0000ms, 0744ms total)
T304C 001:574 JLINK_WriteReg(CFBP, 0x00000000)  returns 0x00 (0000ms, 0744ms total)
T304C 001:574 JLINK_SetBPEx(Addr = 0x10000000, Type = 0xFFFFFFF2)  returns 0x0000000D (0000ms, 0744ms total)
T304C 001:574 JLINK_Go() >0x2C8 JTAG> >0x1E8 JTAG> >0x1E8 JTAG> >0x1E8 JTAG> >0x218 JTAG> >0x218 JTAG> (0010ms, 0754ms total)
T304C 001:584 JLINK_IsHalted() >0x170 JTAG>  returns FALSE (0001ms, 0755ms total)
T304C 001:636 JLINK_IsHalted() >0x170 JTAG>  returns FALSE (0001ms, 0755ms total)
T304C 001:639 JLINK_IsHalted() >0x170 JTAG>  returns FALSE (0001ms, 0755ms total)
T304C 001:642 JLINK_IsHalted() >0x170 JTAG>  returns FALSE (0001ms, 0755ms total)
T304C 001:645 JLINK_IsHalted() >0x170 JTAG>  returns FALSE (0001ms, 0755ms total)
T304C 001:652 JLINK_IsHalted() >0x170 JTAG>  returns FALSE (0001ms, 0755ms total)
T304C 001:655 JLINK_IsHalted() >0x170 JTAG>  returns FALSE (0001ms, 0755ms total)
T304C 001:658 JLINK_IsHalted() >0x170 JTAG>  returns FALSE (0001ms, 0755ms total)
T304C 001:660 JLINK_IsHalted() >0x170 JTAG>  returns FALSE (0001ms, 0755ms total)
T304C 001:681 JLINK_IsHalted() >0x170 JTAG>  returns FALSE (0001ms, 0755ms total)
T304C 001:684 JLINK_IsHalted() >0x170 JTAG> >0x1598 JTAG>  returns TRUE (0011ms, 0765ms total)
T304C 001:695 JLINK_ReadReg(R15)  returns 0x10000000 (0000ms, 0754ms total)
T304C 001:695 JLINK_ClrBPEx(BPHandle = 0x0000000D)  returns 0x00 (0000ms, 0754ms total)
T304C 001:695 JLINK_ReadReg(R0)  returns 0x00000000 (0000ms, 0754ms total)
T304C 001:696 JLINK_WriteReg(R0, 0x00006000)  returns 0x00 (0000ms, 0754ms total)
T304C 001:696 JLINK_WriteReg(R1, 0x00001000)  returns 0x00 (0000ms, 0754ms total)
T304C 001:696 JLINK_WriteReg(R2, 0x000000FF)  returns 0x00 (0000ms, 0754ms total)
T304C 001:696 JLINK_WriteReg(R3, 0x00000000)  returns 0x00 (0000ms, 0754ms total)
T304C 001:696 JLINK_WriteReg(R4, 0x00000000)  returns 0x00 (0000ms, 0754ms total)
T304C 001:696 JLINK_WriteReg(R5, 0x00000000)  returns 0x00 (0000ms, 0754ms total)
T304C 001:696 JLINK_WriteReg(R6, 0x00000000)  returns 0x00 (0000ms, 0754ms total)
T304C 001:696 JLINK_WriteReg(R7, 0x00000000)  returns 0x00 (0000ms, 0754ms total)
T304C 001:697 JLINK_WriteReg(R8, 0x00000000)  returns 0x00 (0000ms, 0755ms total)
T304C 001:697 JLINK_WriteReg(R9, 0x100001DC)  returns 0x00 (0000ms, 0755ms total)
T304C 001:697 JLINK_WriteReg(R10, 0x00000000)  returns 0x00 (0000ms, 0755ms total)
T304C 001:697 JLINK_WriteReg(R11, 0x00000000)  returns 0x00 (0000ms, 0755ms total)
T304C 001:697 JLINK_WriteReg(R12, 0x00000000)  returns 0x00 (0000ms, 0755ms total)
T304C 001:697 JLINK_WriteReg(R13, 0x10000800)  returns 0x00 (0000ms, 0755ms total)
T304C 001:697 JLINK_WriteReg(R14, 0x10000001)  returns 0x00 (0000ms, 0755ms total)
T304C 001:697 JLINK_WriteReg(R15, 0x10000020)  returns 0x00 (0000ms, 0755ms total)
T304C 001:697 JLINK_WriteReg(XPSR, 0x01000000)  returns 0x00 (0000ms, 0755ms total)
T304C 001:697 JLINK_WriteReg(MSP, 0x10000800)  returns 0x00 (0000ms, 0755ms total)
T304C 001:697 JLINK_WriteReg(PSP, 0x10000800)  returns 0x00 (0000ms, 0755ms total)
T304C 001:697 JLINK_WriteReg(CFBP, 0x00000000)  returns 0x00 (0000ms, 0755ms total)
T304C 001:697 JLINK_SetBPEx(Addr = 0x10000000, Type = 0xFFFFFFF2)  returns 0x0000000E (0000ms, 0755ms total)
T304C 001:697 JLINK_Go() >0x2C8 JTAG> >0x1E8 JTAG> >0x1E8 JTAG> >0x1E8 JTAG> >0x1E8 JTAG> >0x1E8 JTAG> >0x1E8 JTAG> >0x218 JTAG> >0x218 JTAG> (0012ms, 0767ms total)
T304C 001:709 JLINK_IsHalted() >0x170 JTAG> >0x1598 JTAG>  returns TRUE (0011ms, 0778ms total)
T304C 001:720 JLINK_ReadReg(R15)  returns 0x10000000 (0000ms, 0767ms total)
T304C 001:720 JLINK_ClrBPEx(BPHandle = 0x0000000E)  returns 0x00 (0001ms, 0768ms total)
T304C 001:721 JLINK_ReadReg(R0)  returns 0x00000001 (0000ms, 0768ms total)
T304C 001:721 JLINK_WriteReg(R0, 0x00006000)  returns 0x00 (0000ms, 0768ms total)
T304C 001:721 JLINK_WriteReg(R1, 0x00001000)  returns 0x00 (0000ms, 0768ms total)
T304C 001:721 JLINK_WriteReg(R2, 0x000000FF)  returns 0x00 (0000ms, 0768ms total)
T304C 001:721 JLINK_WriteReg(R3, 0x00000000)  returns 0x00 (0000ms, 0768ms total)
T304C 001:721 JLINK_WriteReg(R4, 0x00000000)  returns 0x00 (0000ms, 0768ms total)
T304C 001:721 JLINK_WriteReg(R5, 0x00000000)  returns 0x00 (0000ms, 0768ms total)
T304C 001:721 JLINK_WriteReg(R6, 0x00000000)  returns 0x00 (0000ms, 0768ms total)
T304C 001:721 JLINK_WriteReg(R7, 0x00000000)  returns 0x00 (0000ms, 0768ms total)
T304C 001:721 JLINK_WriteReg(R8, 0x00000000)  returns 0x00 (0000ms, 0768ms total)
T304C 001:721 JLINK_WriteReg(R9, 0x100001DC)  returns 0x00 (0000ms, 0768ms total)
T304C 001:721 JLINK_WriteReg(R10, 0x00000000)  returns 0x00 (0000ms, 0768ms total)
T304C 001:721 JLINK_WriteReg(R11, 0x00000000)  returns 0x00 (0000ms, 0768ms total)
T304C 001:721 JLINK_WriteReg(R12, 0x00000000)  returns 0x00 (0000ms, 0768ms total)
T304C 001:721 JLINK_WriteReg(R13, 0x10000800)  returns 0x00 (0000ms, 0768ms total)
T304C 001:721 JLINK_WriteReg(R14, 0x10000001)  returns 0x00 (0000ms, 0768ms total)
T304C 001:721 JLINK_WriteReg(R15, 0x10000110)  returns 0x00 (0000ms, 0768ms total)
T304C 001:721 JLINK_WriteReg(XPSR, 0x01000000)  returns 0x00 (0000ms, 0768ms total)
T304C 001:721 JLINK_WriteReg(MSP, 0x10000800)  returns 0x00 (0000ms, 0768ms total)
T304C 001:721 JLINK_WriteReg(PSP, 0x10000800)  returns 0x00 (0000ms, 0768ms total)
T304C 001:721 JLINK_WriteReg(CFBP, 0x00000000)  returns 0x00 (0000ms, 0768ms total)
T304C 001:721 JLINK_SetBPEx(Addr = 0x10000000, Type = 0xFFFFFFF2)  returns 0x0000000F (0001ms, 0769ms total)
T304C 001:722 JLINK_Go() >0x2C8 JTAG> >0x1E8 JTAG> >0x1E8 JTAG> >0x1E8 JTAG> >0x218 JTAG> >0x218 JTAG> (0009ms, 0778ms total)
T304C 001:732 JLINK_IsHalted() >0x170 JTAG>  returns FALSE (0001ms, 0779ms total)
T304C 001:740 JLINK_IsHalted() >0x170 JTAG>  returns FALSE (0001ms, 0779ms total)
T304C 001:743 JLINK_IsHalted() >0x170 JTAG>  returns FALSE (0001ms, 0779ms total)
T304C 001:746 JLINK_IsHalted() >0x170 JTAG>  returns FALSE (0001ms, 0779ms total)
T304C 001:749 JLINK_IsHalted() >0x170 JTAG>  returns FALSE (0001ms, 0779ms total)
T304C 001:752 JLINK_IsHalted() >0x170 JTAG>  returns FALSE (0001ms, 0779ms total)
T304C 001:755 JLINK_IsHalted() >0x170 JTAG>  returns FALSE (0001ms, 0779ms total)
T304C 001:763 JLINK_IsHalted() >0x170 JTAG>  returns FALSE (0001ms, 0779ms total)
T304C 001:766 JLINK_IsHalted() >0x170 JTAG>  returns FALSE (0001ms, 0779ms total)
T304C 001:769 JLINK_IsHalted() >0x170 JTAG>  returns FALSE (0001ms, 0779ms total)
T304C 001:811 JLINK_IsHalted() >0x170 JTAG>  returns FALSE (0001ms, 0779ms total)
T304C 001:814 JLINK_IsHalted() >0x170 JTAG>  returns FALSE (0001ms, 0779ms total)
T304C 001:817 JLINK_IsHalted() >0x170 JTAG>  returns FALSE (0001ms, 0779ms total)
T304C 001:820 JLINK_IsHalted() >0x170 JTAG>  returns FALSE (0001ms, 0779ms total)
T304C 001:823 JLINK_IsHalted() >0x170 JTAG>  returns FALSE (0001ms, 0779ms total)
T304C 001:826 JLINK_IsHalted() >0x170 JTAG>  returns FALSE (0001ms, 0779ms total)
T304C 001:829 JLINK_IsHalted() >0x170 JTAG>  returns FALSE (0001ms, 0779ms total)
T304C 001:833 JLINK_IsHalted() >0x170 JTAG> >0x1598 JTAG>  returns TRUE (0011ms, 0789ms total)
T304C 001:844 JLINK_ReadReg(R15)  returns 0x10000000 (0000ms, 0778ms total)
T304C 001:844 JLINK_ClrBPEx(BPHandle = 0x0000000F)  returns 0x00 (0001ms, 0779ms total)
T304C 001:845 JLINK_ReadReg(R0)  returns 0x00000000 (0000ms, 0779ms total)
